
T38BC 000:542 SEGGER J-Link V4.98e Log File (0001ms, 0347ms total)
T38BC 000:542 DLL Compiled: May  5 2015 11:00:52 (0001ms, 0347ms total)
T38BC 000:542 Logging started @ 2020-11-09 09:24 (0001ms, 0347ms total)
T38BC 000:543 JLINK_SetWarnOutHandler(...) (0000ms, 0347ms total)
T38BC 000:543 JLINK_OpenEx(...)
Firmware: J-Link V9 compiled May 17 2019 09:50:41
Hardware: V9.60
S/N: 69650399
Feature(s): RDI, GDB, FlashDL, FlashBP, JFlash  returns O.K. (0273ms, 0620ms total)
T38BC 000:816 JLINK_SetErrorOutHandler(...) (0000ms, 0620ms total)
T38BC 000:816 JLINK_ExecCommand("ProjectFile = "D:\Ewenjian\研究生阶段\直流稳压电源\新样机调试\程序\高精度电源程序20201109温度消抖\Project\JLinkSettings.ini"", ...)  returns 0x00 (0011ms, 0631ms total)
T38BC 000:850 JLINK_ExecCommand("Device = STM32F105VB", ...)Device "STM32F105VB" selected.  returns 0x00 (0036ms, 0668ms total)
T38BC 000:887 JLINK_ExecCommand("DisableConnectionTimeout", ...)  returns 0x01 (0000ms, 0668ms total)
T38BC 000:887 JLINK_GetHardwareVersion()  returns 0x17700 (0000ms, 0668ms total)
T38BC 000:887 JLINK_GetDLLVersion()  returns 49805 (0001ms, 0669ms total)
T38BC 000:888 JLINK_GetFirmwareString(...) (0000ms, 0669ms total)
T38BC 000:954 JLINK_GetDLLVersion()  returns 49805 (0000ms, 0669ms total)
T38BC 000:954 JLINK_GetCompileDateTime() (0000ms, 0669ms total)
T38BC 000:970 JLINK_GetFirmwareString(...) (0001ms, 0670ms total)
T38BC 000:984 JLINK_GetHardwareVersion()  returns 0x17700 (0000ms, 0670ms total)
T38BC 001:059 JLINK_TIF_Select(JLINKARM_TIF_SWD)  returns 0x00 (0001ms, 0671ms total)
T38BC 001:060 JLINK_SetSpeed(5000) (0000ms, 0671ms total)
T38BC 001:060 JLINK_GetId() >0x108 TIF>Found SWD-DP with ID 0x1BA01477 >0x0D TIF> >0x28 TIF> >0x0D TIF> >0x28 TIF> >0x0D TIF> >0x21 TIF> >0x0D TIF> >0x28 TIF> >0x0D TIF> >0x28 TIF> >0x0D TIF> >0x28 TIF> >0x0D TIF> >0x21 TIF> >0x0D TIF> >0x21 TIF> >0x0D TIF> >0x28 TIF> >0x0D TIF> >0x21 TIF> >0x0D TIF> >0x21 TIF> >0x0D TIF> >0x28 TIF> >0x0D TIF> >0x28 TIF> >0x108 TIF>Found SWD-DP with ID 0x1BA01477 >0x0D TIF> >0x21 TIF> >0x0D TIF> >0x28 TIF> >0x0D TIF> >0x28 TIF> >0x0D TIF> >0x21 TIF> >0x0D TIF> >0x28 TIF>
 >0x0D TIF> >0x21 TIF> >0x0D TIF> >0x21 TIF> >0x0D TIF> >0x21 TIF> >0x0D TIF> >0x21 TIF> >0x0D TIF> >0x28 TIF> >0x0D TIF> >0x28 TIF> >0x0D TIF> >0x21 TIF> >0x0D TIF> >0x28 TIF> >0x0D TIF> >0x28 TIF> >0x0D TIF> >0x28 TIF> >0x0D TIF> >0x21 TIF> >0x0D TIF> >0x21 TIF> >0x0D TIF> >0x28 TIF> >0x0D TIF> >0x21 TIF> >0x0D TIF> >0x21 TIF>Found Cortex-M3 r1p1, Little endian. -- CPU_WriteMem(4 bytes @ 0xE0002000) -- CPU_ReadMem(4 bytes @ 0xE000EDF0) -- CPU_WriteMem(4 bytes @ 0xE000EDF0)
 -- CPU_ReadMem(4 bytes @ 0xE0002000)FPUnit: 6 code (BP) slots and 2 literal slots -- CPU_ReadMem(4 bytes @ 0xE000EDFC) -- CPU_WriteMem(4 bytes @ 0xE000EDFC) -- CPU_ReadMem(4 bytes @ 0xE0001000) -- CPU_WriteMem(4 bytes @ 0xE0001000) -- CPU_ReadMem(4 bytes @ 0xE000ED88) -- CPU_WriteMem(4 bytes @ 0xE000ED88) -- CPU_ReadMem(4 bytes @ 0xE000ED88) -- CPU_WriteMem(4 bytes @ 0xE000ED88)CoreSight components:ROMTbl 0 @ E00FF000 -- CPU_ReadMem(16 bytes @ 0xE00FF000) -- CPU_ReadMem(16 bytes @ 0xE000EFF0)
 -- CPU_ReadMem(16 bytes @ 0xE000EFE0)ROMTbl 0 [0]: FFF0F000, CID: B105E00D, PID: 001BB000 SCS -- CPU_ReadMem(16 bytes @ 0xE0001FF0) -- CPU_ReadMem(16 bytes @ 0xE0001FE0)ROMTbl 0 [1]: FFF02000, CID: B105E00D, PID: 001BB002 DWT -- CPU_ReadMem(16 bytes @ 0xE0002FF0) -- CPU_ReadMem(16 bytes @ 0xE0002FE0)ROMTbl 0 [2]: FFF03000, CID: B105E00D, PID: 000BB003 FPB -- CPU_ReadMem(16 bytes @ 0xE0000FF0) -- CPU_ReadMem(16 bytes @ 0xE0000FE0)ROMTbl 0 [3]: FFF01000, CID: B105E00D, PID: 001BB001 ITM
 -- CPU_ReadMem(16 bytes @ 0xE00FF010) -- CPU_ReadMem(16 bytes @ 0xE0040FF0) -- CPU_ReadMem(16 bytes @ 0xE0040FE0)ROMTbl 0 [4]: FFF41000, CID: B105900D, PID: 001BB923 TPIU-Lite -- CPU_ReadMem(16 bytes @ 0xE0041FF0) -- CPU_ReadMem(16 bytes @ 0xE0041FE0)ROMTbl 0 [5]: FFF42000, CID: B105900D, PID: 101BB924 ETM-M3 >0x0D TIF> >0x21 TIF>  returns 0x1BA01477 (0205ms, 0876ms total)
T38BC 001:265 JLINK_GetDLLVersion()  returns 49805 (0000ms, 0876ms total)
T38BC 001:265 JLINK_CORE_GetFound()  returns 0x30000FF (0001ms, 0877ms total)
T38BC 001:266 JLINK_GetDebugInfo(0x100) -- Value=0xE00FF003  returns 0x00 (0000ms, 0877ms total)
T38BC 001:280 JLINK_ReadMem (0xE00FF000, 0x0020 Bytes, ...) -- CPU is running -- CPU_ReadMem(32 bytes @ 0xE00FF000) - Data: 03 F0 F0 FF 03 20 F0 FF 03 30 F0 FF 03 10 F0 FF ...  returns 0x00 (0001ms, 0878ms total)
T38BC 001:281 JLINK_ReadMem (0xE000EFF0, 0x0010 Bytes, ...) -- CPU is running -- CPU_ReadMem(16 bytes @ 0xE000EFF0) - Data: 0D 00 00 00 E0 00 00 00 05 00 00 00 B1 00 00 00  returns 0x00 (0001ms, 0879ms total)
T38BC 001:282 JLINK_ReadMem (0xE000EFD0, 0x0020 Bytes, ...) -- CPU is running -- CPU_ReadMem(32 bytes @ 0xE000EFD0) - Data: 04 00 00 00 00 00 00 00 00 00 00 00 00 00 00 00 ...  returns 0x00 (0000ms, 0879ms total)
T38BC 001:282 JLINK_ReadMem (0xE0001FF0, 0x0010 Bytes, ...) -- CPU is running -- CPU_ReadMem(16 bytes @ 0xE0001FF0) - Data: 0D 00 00 00 E0 00 00 00 05 00 00 00 B1 00 00 00  returns 0x00 (0001ms, 0880ms total)
T38BC 001:283 JLINK_ReadMem (0xE0001FD0, 0x0020 Bytes, ...) -- CPU is running -- CPU_ReadMem(32 bytes @ 0xE0001FD0) - Data: 04 00 00 00 00 00 00 00 00 00 00 00 00 00 00 00 ...  returns 0x00 (0000ms, 0880ms total)
T38BC 001:283 JLINK_ReadMem (0xE0002FF0, 0x0010 Bytes, ...) -- CPU is running -- CPU_ReadMem(16 bytes @ 0xE0002FF0) - Data: 0D 00 00 00 E0 00 00 00 05 00 00 00 B1 00 00 00  returns 0x00 (0001ms, 0881ms total)
T38BC 001:284 JLINK_ReadMem (0xE0002FD0, 0x0020 Bytes, ...) -- CPU is running -- CPU_ReadMem(32 bytes @ 0xE0002FD0) - Data: 04 00 00 00 00 00 00 00 00 00 00 00 00 00 00 00 ...  returns 0x00 (0000ms, 0881ms total)
T38BC 001:284 JLINK_ReadMem (0xE0000FF0, 0x0010 Bytes, ...) -- CPU is running -- CPU_ReadMem(16 bytes @ 0xE0000FF0) - Data: 0D 00 00 00 E0 00 00 00 05 00 00 00 B1 00 00 00  returns 0x00 (0001ms, 0882ms total)
T38BC 001:285 JLINK_ReadMem (0xE0000FD0, 0x0020 Bytes, ...) -- CPU is running -- CPU_ReadMem(32 bytes @ 0xE0000FD0) - Data: 04 00 00 00 00 00 00 00 00 00 00 00 00 00 00 00 ...  returns 0x00 (0000ms, 0882ms total)
T38BC 001:285 JLINK_ReadMem (0xE0040FF0, 0x0010 Bytes, ...) -- CPU is running -- CPU_ReadMem(16 bytes @ 0xE0040FF0) - Data: 0D 00 00 00 90 00 00 00 05 00 00 00 B1 00 00 00  returns 0x00 (0001ms, 0883ms total)
T38BC 001:286 JLINK_ReadMem (0xE0040FD0, 0x0020 Bytes, ...) -- CPU is running -- CPU_ReadMem(32 bytes @ 0xE0040FD0) - Data: 04 00 00 00 00 00 00 00 00 00 00 00 00 00 00 00 ...  returns 0x00 (0001ms, 0884ms total)
T38BC 001:287 JLINK_ReadMem (0xE0041FF0, 0x0010 Bytes, ...) -- CPU is running -- CPU_ReadMem(16 bytes @ 0xE0041FF0) - Data: 0D 00 00 00 90 00 00 00 05 00 00 00 B1 00 00 00  returns 0x00 (0000ms, 0884ms total)
T38BC 001:287 JLINK_ReadMem (0xE0041FD0, 0x0020 Bytes, ...) -- CPU is running -- CPU_ReadMem(32 bytes @ 0xE0041FD0) - Data: 04 00 00 00 00 00 00 00 00 00 00 00 00 00 00 00 ...  returns 0x00 (0001ms, 0885ms total)
T38BC 001:288 JLINK_ReadMemU32(0xE000ED00, 0x0001 Items, ...) -- CPU is running -- CPU_ReadMem(4 bytes @ 0xE000ED00) - Data: 31 C2 1F 41  returns 0x01 (0000ms, 0885ms total)
T38BC 001:288 JLINK_SetResetType(JLINKARM_RESET_TYPE_NORMAL)  returns JLINKARM_RESET_TYPE_NORMAL (0000ms, 0885ms total)
T38BC 001:288 JLINK_Reset() -- CPU is running -- CPU_WriteMem(4 bytes @ 0xE000EDF0) -- CPU is running -- CPU_WriteMem(4 bytes @ 0xE000EDFC) >0x35 TIF> -- CPU is running -- CPU_WriteMem(4 bytes @ 0xE000ED0C) -- CPU is running -- CPU_ReadMem(4 bytes @ 0xE000EDF0) -- CPU is running -- CPU_ReadMem(4 bytes @ 0xE000EDF0) -- CPU is running -- CPU_WriteMem(4 bytes @ 0xE000EDF0) -- CPU is running -- CPU_WriteMem(4 bytes @ 0xE000EDFC) -- CPU is running -- CPU_ReadMem(4 bytes @ 0xE000EDF0)
 -- CPU_WriteMem(4 bytes @ 0xE0002000) -- CPU_ReadMem(4 bytes @ 0xE000EDFC) -- CPU_ReadMem(4 bytes @ 0xE0001000) (0017ms, 0902ms total)
T38BC 001:305 JLINK_Halt()  returns 0x00 (0000ms, 0902ms total)
T38BC 001:305 JLINK_IsHalted()  returns TRUE (0000ms, 0902ms total)
T38BC 001:305 JLINK_ReadMemU32(0xE000EDF0, 0x0001 Items, ...) -- CPU_ReadMem(4 bytes @ 0xE000EDF0) - Data: 03 00 03 00  returns 0x01 (0000ms, 0902ms total)
T38BC 001:305 JLINK_WriteU32(0xE000EDF0, 0xA05F0003) -- CPU_WriteMem(4 bytes @ 0xE000EDF0)  returns 0x00 (0001ms, 0903ms total)
T38BC 001:306 JLINK_WriteU32(0xE000EDFC, 0x01000000) -- CPU_WriteMem(4 bytes @ 0xE000EDFC)  returns 0x00 (0000ms, 0903ms total)
T38BC 001:362 JLINK_GetHWStatus(...)  returns 0x00 (0000ms, 0903ms total)
T38BC 001:405 JLINK_GetNumBPUnits(Type = 0xFFFFFF00)  returns 0x06 (0000ms, 0903ms total)
T38BC 001:405 JLINK_GetNumBPUnits(Type = 0xF0)  returns 0x2000 (0000ms, 0903ms total)
T38BC 001:405 JLINK_GetNumWPUnits()  returns 0x04 (0000ms, 0903ms total)
T38BC 001:446 JLINK_GetSpeed()  returns 0xFA0 (0000ms, 0903ms total)
T38BC 001:470 JLINK_ReadMemU32(0xE000E004, 0x0001 Items, ...) -- CPU_ReadMem(4 bytes @ 0xE000E004) - Data: 02 00 00 00  returns 0x01 (0000ms, 0903ms total)
T38BC 001:470 JLINK_ReadMemU32(0xE000E004, 0x0001 Items, ...) -- CPU_ReadMem(4 bytes @ 0xE000E004) - Data: 02 00 00 00  returns 0x01 (0001ms, 0904ms total)
T38BC 001:471 JLINK_WriteMem(0xE0001000, 0x001C Bytes, ...) - Data: 01 00 00 00 00 00 00 00 00 00 00 00 00 00 00 00 ... -- CPU_WriteMem(28 bytes @ 0xE0001000)  returns 0x1C (0002ms, 0906ms total)
T38BC 001:473 JLINK_ReadMem (0xE0001000, 0x001C Bytes, ...) -- CPU_ReadMem(28 bytes @ 0xE0001000) - Data: 01 00 00 40 00 00 00 00 00 00 00 00 00 00 00 00 ...  returns 0x00 (0000ms, 0906ms total)
T38BC 001:473 JLINK_Halt()  returns 0x00 (0000ms, 0906ms total)
T38BC 001:473 JLINK_IsHalted()  returns TRUE (0000ms, 0906ms total)
T38BC 001:488 JLINK_WriteMem(0x20000000, 0x0164 Bytes, ...) - Data: 00 BE 0A E0 0D 78 2D 06 68 40 08 24 40 00 00 D3 ... -- CPU_WriteMem(356 bytes @ 0x20000000)  returns 0x164 (0003ms, 0909ms total)
T38BC 001:491 JLINK_WriteReg(R0, 0x08000000)  returns 0x00 (0000ms, 0909ms total)
T38BC 001:491 JLINK_WriteReg(R1, 0x00B71B00)  returns 0x00 (0000ms, 0909ms total)
T38BC 001:491 JLINK_WriteReg(R2, 0x00000001)  returns 0x00 (0000ms, 0909ms total)
T38BC 001:491 JLINK_WriteReg(R3, 0x00000000)  returns 0x00 (0000ms, 0909ms total)
T38BC 001:491 JLINK_WriteReg(R4, 0x00000000)  returns 0x00 (0000ms, 0909ms total)
T38BC 001:491 JLINK_WriteReg(R5, 0x00000000)  returns 0x00 (0000ms, 0909ms total)
T38BC 001:491 JLINK_WriteReg(R6, 0x00000000)  returns 0x00 (0000ms, 0909ms total)
T38BC 001:491 JLINK_WriteReg(R7, 0x00000000)  returns 0x00 (0000ms, 0909ms total)
T38BC 001:491 JLINK_WriteReg(R8, 0x00000000)  returns 0x00 (0000ms, 0909ms total)
T38BC 001:491 JLINK_WriteReg(R9, 0x20000160)  returns 0x00 (0000ms, 0909ms total)
T38BC 001:491 JLINK_WriteReg(R10, 0x00000000)  returns 0x00 (0000ms, 0909ms total)
T38BC 001:491 JLINK_WriteReg(R11, 0x00000000)  returns 0x00 (0001ms, 0910ms total)
T38BC 001:492 JLINK_WriteReg(R12, 0x00000000)  returns 0x00 (0000ms, 0910ms total)
T38BC 001:492 JLINK_WriteReg(R13 (SP), 0x20001000)  returns 0x00 (0000ms, 0910ms total)
T38BC 001:492 JLINK_WriteReg(R14, 0x20000001)  returns 0x00 (0000ms, 0910ms total)
T38BC 001:492 JLINK_WriteReg(R15 (PC), 0x20000038)  returns 0x00 (0000ms, 0910ms total)
T38BC 001:492 JLINK_WriteReg(XPSR, 0x01000000)  returns 0x00 (0000ms, 0910ms total)
T38BC 001:492 JLINK_WriteReg(MSP, 0x20001000)  returns 0x00 (0000ms, 0910ms total)
T38BC 001:492 JLINK_WriteReg(PSP, 0x20001000)  returns 0x00 (0000ms, 0910ms total)
T38BC 001:492 JLINK_WriteReg(CFBP, 0x00000000)  returns 0x00 (0000ms, 0910ms total)
T38BC 001:492 JLINK_SetBPEx(Addr = 0x20000000, Type = 0xFFFFFFF2) -- CPU_ReadMem(2 bytes @ 0x20000000)  returns 0x00000001 (0001ms, 0911ms total)
T38BC 001:493 JLINK_Go() -- CPU_WriteMem(2 bytes @ 0x20000000) -- CPU_ReadMem(4 bytes @ 0xE0001000) -- CPU_WriteMem(4 bytes @ 0xE0002008) -- CPU_WriteMem(4 bytes @ 0xE000200C) -- CPU_WriteMem(4 bytes @ 0xE0002010) -- CPU_WriteMem(4 bytes @ 0xE0002014) -- CPU_WriteMem(4 bytes @ 0xE0002018) -- CPU_WriteMem(4 bytes @ 0xE000201C) -- CPU_WriteMem(4 bytes @ 0xE0001004) (0004ms, 0915ms total)
T38BC 001:497 JLINK_IsHalted() -- CPU_ReadMem(2 bytes @ 0x20000000)  returns TRUE (0003ms, 0918ms total)
T38BC 001:500 JLINK_ReadReg(R15 (PC))  returns 0x20000000 (0000ms, 0915ms total)
T38BC 001:500 JLINK_ClrBPEx(BPHandle = 0x00000001)  returns 0x00 (0000ms, 0915ms total)
T38BC 001:500 JLINK_ReadReg(R0)  returns 0x00000000 (0000ms, 0915ms total)
T38BC 001:501 JLINK_WriteReg(R0, 0x08000000)  returns 0x00 (0000ms, 0915ms total)
T38BC 001:501 JLINK_WriteReg(R1, 0x00B71B00)  returns 0x00 (0000ms, 0915ms total)
T38BC 001:501 JLINK_WriteReg(R2, 0x00000001)  returns 0x00 (0000ms, 0915ms total)
T38BC 001:501 JLINK_WriteReg(R3, 0x00000000)  returns 0x00 (0000ms, 0915ms total)
T38BC 001:501 JLINK_WriteReg(R4, 0x00000000)  returns 0x00 (0001ms, 0916ms total)
T38BC 001:502 JLINK_WriteReg(R5, 0x00000000)  returns 0x00 (0000ms, 0916ms total)
T38BC 001:502 JLINK_WriteReg(R6, 0x00000000)  returns 0x00 (0000ms, 0916ms total)
T38BC 001:502 JLINK_WriteReg(R7, 0x00000000)  returns 0x00 (0000ms, 0916ms total)
T38BC 001:502 JLINK_WriteReg(R8, 0x00000000)  returns 0x00 (0000ms, 0916ms total)
T38BC 001:502 JLINK_WriteReg(R9, 0x20000160)  returns 0x00 (0000ms, 0916ms total)
T38BC 001:502 JLINK_WriteReg(R10, 0x00000000)  returns 0x00 (0000ms, 0916ms total)
T38BC 001:502 JLINK_WriteReg(R11, 0x00000000)  returns 0x00 (0000ms, 0916ms total)
T38BC 001:502 JLINK_WriteReg(R12, 0x00000000)  returns 0x00 (0000ms, 0916ms total)
T38BC 001:502 JLINK_WriteReg(R13 (SP), 0x20001000)  returns 0x00 (0000ms, 0916ms total)
T38BC 001:502 JLINK_WriteReg(R14, 0x20000001)  returns 0x00 (0000ms, 0916ms total)
T38BC 001:502 JLINK_WriteReg(R15 (PC), 0x2000007C)  returns 0x00 (0000ms, 0916ms total)
T38BC 001:502 JLINK_WriteReg(XPSR, 0x01000000)  returns 0x00 (0000ms, 0916ms total)
T38BC 001:502 JLINK_WriteReg(MSP, 0x20001000)  returns 0x00 (0000ms, 0916ms total)
T38BC 001:502 JLINK_WriteReg(PSP, 0x20001000)  returns 0x00 (0001ms, 0917ms total)
T38BC 001:503 JLINK_WriteReg(CFBP, 0x00000000)  returns 0x00 (0000ms, 0917ms total)
T38BC 001:503 JLINK_SetBPEx(Addr = 0x20000000, Type = 0xFFFFFFF2)  returns 0x00000002 (0000ms, 0917ms total)
T38BC 001:503 JLINK_Go() -- CPU_ReadMem(4 bytes @ 0xE0001000) (0001ms, 0918ms total)
T38BC 001:504 JLINK_IsHalted()  returns FALSE (0001ms, 0919ms total)
T38BC 001:609 JLINK_IsHalted() -- CPU_ReadMem(2 bytes @ 0x20000000)  returns TRUE (0002ms, 0920ms total)
T38BC 001:611 JLINK_ReadReg(R15 (PC))  returns 0x20000000 (0000ms, 0918ms total)
T38BC 001:611 JLINK_ClrBPEx(BPHandle = 0x00000002)  returns 0x00 (0000ms, 0918ms total)
T38BC 001:611 JLINK_ReadReg(R0)  returns 0x00000000 (0000ms, 0918ms total)
T38BC 001:664 JLINK_WriteReg(R0, 0x00000001)  returns 0x00 (0001ms, 0919ms total)
T38BC 001:665 JLINK_WriteReg(R1, 0x00B71B00)  returns 0x00 (0000ms, 0919ms total)
T38BC 001:665 JLINK_WriteReg(R2, 0x00000001)  returns 0x00 (0000ms, 0919ms total)
T38BC 001:665 JLINK_WriteReg(R3, 0x00000000)  returns 0x00 (0000ms, 0919ms total)
T38BC 001:665 JLINK_WriteReg(R4, 0x00000000)  returns 0x00 (0000ms, 0919ms total)
T38BC 001:665 JLINK_WriteReg(R5, 0x00000000)  returns 0x00 (0000ms, 0919ms total)
T38BC 001:665 JLINK_WriteReg(R6, 0x00000000)  returns 0x00 (0000ms, 0919ms total)
T38BC 001:665 JLINK_WriteReg(R7, 0x00000000)  returns 0x00 (0000ms, 0919ms total)
T38BC 001:665 JLINK_WriteReg(R8, 0x00000000)  returns 0x00 (0000ms, 0919ms total)
T38BC 001:665 JLINK_WriteReg(R9, 0x20000160)  returns 0x00 (0000ms, 0919ms total)
T38BC 001:665 JLINK_WriteReg(R10, 0x00000000)  returns 0x00 (0001ms, 0920ms total)
T38BC 001:666 JLINK_WriteReg(R11, 0x00000000)  returns 0x00 (0000ms, 0920ms total)
T38BC 001:666 JLINK_WriteReg(R12, 0x00000000)  returns 0x00 (0000ms, 0920ms total)
T38BC 001:666 JLINK_WriteReg(R13 (SP), 0x20001000)  returns 0x00 (0000ms, 0920ms total)
T38BC 001:666 JLINK_WriteReg(R14, 0x20000001)  returns 0x00 (0000ms, 0920ms total)
T38BC 001:666 JLINK_WriteReg(R15 (PC), 0x2000006A)  returns 0x00 (0000ms, 0920ms total)
T38BC 001:666 JLINK_WriteReg(XPSR, 0x01000000)  returns 0x00 (0000ms, 0920ms total)
T38BC 001:666 JLINK_WriteReg(MSP, 0x20001000)  returns 0x00 (0000ms, 0920ms total)
T38BC 001:666 JLINK_WriteReg(PSP, 0x20001000)  returns 0x00 (0000ms, 0920ms total)
T38BC 001:666 JLINK_WriteReg(CFBP, 0x00000000)  returns 0x00 (0000ms, 0920ms total)
T38BC 001:666 JLINK_SetBPEx(Addr = 0x20000000, Type = 0xFFFFFFF2)  returns 0x00000003 (0000ms, 0920ms total)
T38BC 001:666 JLINK_Go() -- CPU_ReadMem(4 bytes @ 0xE0001000) (0002ms, 0922ms total)
T38BC 001:668 JLINK_IsHalted() -- CPU_ReadMem(2 bytes @ 0x20000000)  returns TRUE (0002ms, 0924ms total)
T38BC 001:670 JLINK_ReadReg(R15 (PC))  returns 0x20000000 (0000ms, 0922ms total)
T38BC 001:670 JLINK_ClrBPEx(BPHandle = 0x00000003)  returns 0x00 (0000ms, 0922ms total)
T38BC 001:670 JLINK_ReadReg(R0)  returns 0x00000000 (0000ms, 0922ms total)
T38BC 001:688 JLINK_WriteMem(0x20000000, 0x0164 Bytes, ...) - Data: 00 BE 0A E0 0D 78 2D 06 68 40 08 24 40 00 00 D3 ... -- CPU_WriteMem(356 bytes @ 0x20000000)  returns 0x164 (0002ms, 0924ms total)
T38BC 001:690 JLINK_WriteReg(R0, 0x08000000)  returns 0x00 (0000ms, 0924ms total)
T38BC 001:690 JLINK_WriteReg(R1, 0x00B71B00)  returns 0x00 (0000ms, 0924ms total)
T38BC 001:690 JLINK_WriteReg(R2, 0x00000002)  returns 0x00 (0000ms, 0924ms total)
T38BC 001:690 JLINK_WriteReg(R3, 0x00000000)  returns 0x00 (0000ms, 0924ms total)
T38BC 001:690 JLINK_WriteReg(R4, 0x00000000)  returns 0x00 (0000ms, 0924ms total)
T38BC 001:690 JLINK_WriteReg(R5, 0x00000000)  returns 0x00 (0001ms, 0925ms total)
T38BC 001:691 JLINK_WriteReg(R6, 0x00000000)  returns 0x00 (0000ms, 0925ms total)
T38BC 001:691 JLINK_WriteReg(R7, 0x00000000)  returns 0x00 (0000ms, 0925ms total)
T38BC 001:691 JLINK_WriteReg(R8, 0x00000000)  returns 0x00 (0000ms, 0925ms total)
T38BC 001:691 JLINK_WriteReg(R9, 0x20000160)  returns 0x00 (0000ms, 0925ms total)
T38BC 001:691 JLINK_WriteReg(R10, 0x00000000)  returns 0x00 (0000ms, 0925ms total)
T38BC 001:691 JLINK_WriteReg(R11, 0x00000000)  returns 0x00 (0000ms, 0925ms total)
T38BC 001:691 JLINK_WriteReg(R12, 0x00000000)  returns 0x00 (0000ms, 0925ms total)
T38BC 001:691 JLINK_WriteReg(R13 (SP), 0x20001000)  returns 0x00 (0000ms, 0925ms total)
T38BC 001:691 JLINK_WriteReg(R14, 0x20000001)  returns 0x00 (0000ms, 0925ms total)
T38BC 001:691 JLINK_WriteReg(R15 (PC), 0x20000038)  returns 0x00 (0000ms, 0925ms total)
T38BC 001:691 JLINK_WriteReg(XPSR, 0x01000000)  returns 0x00 (0000ms, 0925ms total)
T38BC 001:691 JLINK_WriteReg(MSP, 0x20001000)  returns 0x00 (0001ms, 0926ms total)
T38BC 001:692 JLINK_WriteReg(PSP, 0x20001000)  returns 0x00 (0000ms, 0926ms total)
T38BC 001:692 JLINK_WriteReg(CFBP, 0x00000000)  returns 0x00 (0000ms, 0926ms total)
T38BC 001:692 JLINK_SetBPEx(Addr = 0x20000000, Type = 0xFFFFFFF2) -- CPU_ReadMem(2 bytes @ 0x20000000)  returns 0x00000004 (0000ms, 0926ms total)
T38BC 001:692 JLINK_Go() -- CPU_WriteMem(2 bytes @ 0x20000000) -- CPU_ReadMem(4 bytes @ 0xE0001000) (0002ms, 0928ms total)
T38BC 001:694 JLINK_IsHalted() -- CPU_ReadMem(2 bytes @ 0x20000000)  returns TRUE (0002ms, 0930ms total)
T38BC 001:696 JLINK_ReadReg(R15 (PC))  returns 0x20000000 (0000ms, 0928ms total)
T38BC 001:696 JLINK_ClrBPEx(BPHandle = 0x00000004)  returns 0x00 (0000ms, 0928ms total)
T38BC 001:696 JLINK_ReadReg(R0)  returns 0x00000000 (0000ms, 0928ms total)
T38BC 001:697 JLINK_WriteMem(0x20000164, 0x0400 Bytes, ...) - Data: E8 43 00 20 65 01 00 08 9D 92 00 08 73 4F 00 08 ... -- CPU_WriteMem(1024 bytes @ 0x20000164)  returns 0x400 (0004ms, 0932ms total)
T38BC 001:701 JLINK_WriteReg(R0, 0x08000000)  returns 0x00 (0000ms, 0932ms total)
T38BC 001:701 JLINK_WriteReg(R1, 0x00000400)  returns 0x00 (0000ms, 0932ms total)
T38BC 001:701 JLINK_WriteReg(R2, 0x20000164)  returns 0x00 (0001ms, 0933ms total)
T38BC 001:702 JLINK_WriteReg(R3, 0x00000000)  returns 0x00 (0000ms, 0933ms total)
T38BC 001:702 JLINK_WriteReg(R4, 0x00000000)  returns 0x00 (0000ms, 0933ms total)
T38BC 001:702 JLINK_WriteReg(R5, 0x00000000)  returns 0x00 (0000ms, 0933ms total)
T38BC 001:702 JLINK_WriteReg(R6, 0x00000000)  returns 0x00 (0000ms, 0933ms total)
T38BC 001:702 JLINK_WriteReg(R7, 0x00000000)  returns 0x00 (0000ms, 0933ms total)
T38BC 001:702 JLINK_WriteReg(R8, 0x00000000)  returns 0x00 (0000ms, 0933ms total)
T38BC 001:702 JLINK_WriteReg(R9, 0x20000160)  returns 0x00 (0000ms, 0933ms total)
T38BC 001:702 JLINK_WriteReg(R10, 0x00000000)  returns 0x00 (0000ms, 0933ms total)
T38BC 001:702 JLINK_WriteReg(R11, 0x00000000)  returns 0x00 (0001ms, 0934ms total)
T38BC 001:703 JLINK_WriteReg(R12, 0x00000000)  returns 0x00 (0000ms, 0934ms total)
T38BC 001:703 JLINK_WriteReg(R13 (SP), 0x20001000)  returns 0x00 (0000ms, 0934ms total)
T38BC 001:703 JLINK_WriteReg(R14, 0x20000001)  returns 0x00 (0000ms, 0934ms total)
T38BC 001:703 JLINK_WriteReg(R15 (PC), 0x200000F4)  returns 0x00 (0000ms, 0934ms total)
T38BC 001:703 JLINK_WriteReg(XPSR, 0x01000000)  returns 0x00 (0000ms, 0934ms total)
T38BC 001:703 JLINK_WriteReg(MSP, 0x20001000)  returns 0x00 (0000ms, 0934ms total)
T38BC 001:703 JLINK_WriteReg(PSP, 0x20001000)  returns 0x00 (0000ms, 0934ms total)
T38BC 001:703 JLINK_WriteReg(CFBP, 0x00000000)  returns 0x00 (0000ms, 0934ms total)
T38BC 001:703 JLINK_SetBPEx(Addr = 0x20000000, Type = 0xFFFFFFF2)  returns 0x00000005 (0001ms, 0935ms total)
T38BC 001:704 JLINK_Go() -- CPU_ReadMem(4 bytes @ 0xE0001000) (0001ms, 0936ms total)
T38BC 001:705 JLINK_IsHalted()  returns FALSE (0000ms, 0936ms total)
T38BC 001:736 JLINK_IsHalted() -- CPU_ReadMem(2 bytes @ 0x20000000)  returns TRUE (0002ms, 0938ms total)
T38BC 001:738 JLINK_ReadReg(R15 (PC))  returns 0x20000000 (0000ms, 0936ms total)
T38BC 001:738 JLINK_ClrBPEx(BPHandle = 0x00000005)  returns 0x00 (0000ms, 0936ms total)
T38BC 001:738 JLINK_ReadReg(R0)  returns 0x00000000 (0000ms, 0936ms total)
T38BC 001:739 JLINK_WriteMem(0x20000164, 0x0400 Bytes, ...) - Data: 84 EA E7 73 1A 43 40 D0 00 9A 62 B3 01 9A 01 2A ... -- CPU_WriteMem(1024 bytes @ 0x20000164)  returns 0x400 (0004ms, 0940ms total)
T38BC 001:743 JLINK_WriteReg(R0, 0x08000400)  returns 0x00 (0000ms, 0940ms total)
T38BC 001:743 JLINK_WriteReg(R1, 0x00000400)  returns 0x00 (0000ms, 0940ms total)
T38BC 001:743 JLINK_WriteReg(R2, 0x20000164)  returns 0x00 (0000ms, 0940ms total)
T38BC 001:743 JLINK_WriteReg(R3, 0x00000000)  returns 0x00 (0001ms, 0941ms total)
T38BC 001:744 JLINK_WriteReg(R4, 0x00000000)  returns 0x00 (0000ms, 0941ms total)
T38BC 001:744 JLINK_WriteReg(R5, 0x00000000)  returns 0x00 (0000ms, 0941ms total)
T38BC 001:744 JLINK_WriteReg(R6, 0x00000000)  returns 0x00 (0000ms, 0941ms total)
T38BC 001:744 JLINK_WriteReg(R7, 0x00000000)  returns 0x00 (0000ms, 0941ms total)
T38BC 001:744 JLINK_WriteReg(R8, 0x00000000)  returns 0x00 (0000ms, 0941ms total)
T38BC 001:744 JLINK_WriteReg(R9, 0x20000160)  returns 0x00 (0000ms, 0941ms total)
T38BC 001:744 JLINK_WriteReg(R10, 0x00000000)  returns 0x00 (0000ms, 0941ms total)
T38BC 001:744 JLINK_WriteReg(R11, 0x00000000)  returns 0x00 (0000ms, 0941ms total)
T38BC 001:744 JLINK_WriteReg(R12, 0x00000000)  returns 0x00 (0001ms, 0942ms total)
T38BC 001:745 JLINK_WriteReg(R13 (SP), 0x20001000)  returns 0x00 (0000ms, 0942ms total)
T38BC 001:745 JLINK_WriteReg(R14, 0x20000001)  returns 0x00 (0000ms, 0942ms total)
T38BC 001:745 JLINK_WriteReg(R15 (PC), 0x200000F4)  returns 0x00 (0000ms, 0942ms total)
T38BC 001:745 JLINK_WriteReg(XPSR, 0x01000000)  returns 0x00 (0000ms, 0942ms total)
T38BC 001:745 JLINK_WriteReg(MSP, 0x20001000)  returns 0x00 (0000ms, 0942ms total)
T38BC 001:745 JLINK_WriteReg(PSP, 0x20001000)  returns 0x00 (0000ms, 0942ms total)
T38BC 001:745 JLINK_WriteReg(CFBP, 0x00000000)  returns 0x00 (0000ms, 0942ms total)
T38BC 001:745 JLINK_SetBPEx(Addr = 0x20000000, Type = 0xFFFFFFF2)  returns 0x00000006 (0000ms, 0942ms total)
T38BC 001:745 JLINK_Go() -- CPU_ReadMem(4 bytes @ 0xE0001000) (0002ms, 0944ms total)
T38BC 001:747 JLINK_IsHalted()  returns FALSE (0000ms, 0944ms total)
T38BC 001:750 JLINK_IsHalted()  returns FALSE (0000ms, 0944ms total)
T38BC 001:754 JLINK_IsHalted()  returns FALSE (0000ms, 0944ms total)
T38BC 001:756 JLINK_IsHalted()  returns FALSE (0000ms, 0944ms total)
T38BC 001:758 JLINK_IsHalted()  returns FALSE (0000ms, 0944ms total)
T38BC 001:760 JLINK_IsHalted()  returns FALSE (0000ms, 0944ms total)
T38BC 001:762 JLINK_IsHalted()  returns FALSE (0000ms, 0944ms total)
T38BC 001:764 JLINK_IsHalted()  returns FALSE (0001ms, 0945ms total)
T38BC 001:767 JLINK_IsHalted()  returns FALSE (0000ms, 0944ms total)
T38BC 001:769 JLINK_IsHalted()  returns FALSE (0000ms, 0944ms total)
T38BC 001:771 JLINK_IsHalted()  returns FALSE (0000ms, 0944ms total)
T38BC 001:773 JLINK_IsHalted()  returns FALSE (0000ms, 0944ms total)
T38BC 001:778 JLINK_IsHalted() -- CPU_ReadMem(2 bytes @ 0x20000000)  returns TRUE (0002ms, 0946ms total)
T38BC 001:780 JLINK_ReadReg(R15 (PC))  returns 0x20000000 (0000ms, 0944ms total)
T38BC 001:780 JLINK_ClrBPEx(BPHandle = 0x00000006)  returns 0x00 (0000ms, 0944ms total)
T38BC 001:780 JLINK_ReadReg(R0)  returns 0x00000000 (0000ms, 0944ms total)
T38BC 001:781 JLINK_WriteMem(0x20000164, 0x0400 Bytes, ...) - Data: 00 EB C2 50 00 F0 8C B8 00 28 01 DB C0 F1 00 40 ... -- CPU_WriteMem(1024 bytes @ 0x20000164)  returns 0x400 (0005ms, 0949ms total)
T38BC 001:786 JLINK_WriteReg(R0, 0x08000800)  returns 0x00 (0000ms, 0949ms total)
T38BC 001:786 JLINK_WriteReg(R1, 0x00000400)  returns 0x00 (0000ms, 0949ms total)
T38BC 001:786 JLINK_WriteReg(R2, 0x20000164)  returns 0x00 (0000ms, 0949ms total)
T38BC 001:786 JLINK_WriteReg(R3, 0x00000000)  returns 0x00 (0000ms, 0949ms total)
T38BC 001:786 JLINK_WriteReg(R4, 0x00000000)  returns 0x00 (0000ms, 0949ms total)
T38BC 001:786 JLINK_WriteReg(R5, 0x00000000)  returns 0x00 (0000ms, 0949ms total)
T38BC 001:786 JLINK_WriteReg(R6, 0x00000000)  returns 0x00 (0001ms, 0950ms total)
T38BC 001:787 JLINK_WriteReg(R7, 0x00000000)  returns 0x00 (0000ms, 0950ms total)
T38BC 001:787 JLINK_WriteReg(R8, 0x00000000)  returns 0x00 (0000ms, 0950ms total)
T38BC 001:787 JLINK_WriteReg(R9, 0x20000160)  returns 0x00 (0000ms, 0950ms total)
T38BC 001:787 JLINK_WriteReg(R10, 0x00000000)  returns 0x00 (0000ms, 0950ms total)
T38BC 001:787 JLINK_WriteReg(R11, 0x00000000)  returns 0x00 (0000ms, 0950ms total)
T38BC 001:787 JLINK_WriteReg(R12, 0x00000000)  returns 0x00 (0000ms, 0950ms total)
T38BC 001:787 JLINK_WriteReg(R13 (SP), 0x20001000)  returns 0x00 (0000ms, 0950ms total)
T38BC 001:787 JLINK_WriteReg(R14, 0x20000001)  returns 0x00 (0000ms, 0950ms total)
T38BC 001:787 JLINK_WriteReg(R15 (PC), 0x200000F4)  returns 0x00 (0001ms, 0951ms total)
T38BC 001:788 JLINK_WriteReg(XPSR, 0x01000000)  returns 0x00 (0000ms, 0951ms total)
T38BC 001:788 JLINK_WriteReg(MSP, 0x20001000)  returns 0x00 (0000ms, 0951ms total)
T38BC 001:788 JLINK_WriteReg(PSP, 0x20001000)  returns 0x00 (0000ms, 0951ms total)
T38BC 001:788 JLINK_WriteReg(CFBP, 0x00000000)  returns 0x00 (0000ms, 0951ms total)
T38BC 001:788 JLINK_SetBPEx(Addr = 0x20000000, Type = 0xFFFFFFF2)  returns 0x00000007 (0000ms, 0951ms total)
T38BC 001:788 JLINK_Go() -- CPU_ReadMem(4 bytes @ 0xE0001000) (0002ms, 0953ms total)
T38BC 001:790 JLINK_IsHalted()  returns FALSE (0000ms, 0953ms total)
T38BC 001:796 JLINK_IsHalted()  returns FALSE (0000ms, 0953ms total)
T38BC 001:798 JLINK_IsHalted()  returns FALSE (0000ms, 0953ms total)
T38BC 001:802 JLINK_IsHalted()  returns FALSE (0000ms, 0953ms total)
T38BC 001:804 JLINK_IsHalted()  returns FALSE (0000ms, 0953ms total)
T38BC 001:806 JLINK_IsHalted()  returns FALSE (0000ms, 0953ms total)
T38BC 001:808 JLINK_IsHalted()  returns FALSE (0001ms, 0954ms total)
T38BC 001:811 JLINK_IsHalted()  returns FALSE (0000ms, 0953ms total)
T38BC 001:813 JLINK_IsHalted()  returns FALSE (0000ms, 0953ms total)
T38BC 001:825 JLINK_IsHalted() -- CPU_ReadMem(2 bytes @ 0x20000000)  returns TRUE (0002ms, 0955ms total)
T38BC 001:828 JLINK_ReadReg(R15 (PC))  returns 0x20000000 (0000ms, 0953ms total)
T38BC 001:828 JLINK_ClrBPEx(BPHandle = 0x00000007)  returns 0x00 (0000ms, 0953ms total)
T38BC 001:828 JLINK_ReadReg(R0)  returns 0x00000000 (0000ms, 0953ms total)
T38BC 001:829 JLINK_WriteMem(0x20000164, 0x0400 Bytes, ...) - Data: 04 02 0A B1 01 20 00 E0 00 20 70 47 01 46 00 20 ... -- CPU_WriteMem(1024 bytes @ 0x20000164)  returns 0x400 (0004ms, 0957ms total)
T38BC 001:833 JLINK_WriteReg(R0, 0x08000C00)  returns 0x00 (0000ms, 0957ms total)
T38BC 001:833 JLINK_WriteReg(R1, 0x00000400)  returns 0x00 (0001ms, 0958ms total)
T38BC 001:834 JLINK_WriteReg(R2, 0x20000164)  returns 0x00 (0000ms, 0958ms total)
T38BC 001:834 JLINK_WriteReg(R3, 0x00000000)  returns 0x00 (0000ms, 0958ms total)
T38BC 001:834 JLINK_WriteReg(R4, 0x00000000)  returns 0x00 (0000ms, 0958ms total)
T38BC 001:834 JLINK_WriteReg(R5, 0x00000000)  returns 0x00 (0000ms, 0958ms total)
T38BC 001:834 JLINK_WriteReg(R6, 0x00000000)  returns 0x00 (0000ms, 0958ms total)
T38BC 001:834 JLINK_WriteReg(R7, 0x00000000)  returns 0x00 (0000ms, 0958ms total)
T38BC 001:834 JLINK_WriteReg(R8, 0x00000000)  returns 0x00 (0000ms, 0958ms total)
T38BC 001:834 JLINK_WriteReg(R9, 0x20000160)  returns 0x00 (0000ms, 0958ms total)
T38BC 001:834 JLINK_WriteReg(R10, 0x00000000)  returns 0x00 (0001ms, 0959ms total)
T38BC 001:835 JLINK_WriteReg(R11, 0x00000000)  returns 0x00 (0000ms, 0959ms total)
T38BC 001:835 JLINK_WriteReg(R12, 0x00000000)  returns 0x00 (0000ms, 0959ms total)
T38BC 001:835 JLINK_WriteReg(R13 (SP), 0x20001000)  returns 0x00 (0000ms, 0959ms total)
T38BC 001:835 JLINK_WriteReg(R14, 0x20000001)  returns 0x00 (0000ms, 0959ms total)
T38BC 001:835 JLINK_WriteReg(R15 (PC), 0x200000F4)  returns 0x00 (0000ms, 0959ms total)
T38BC 001:835 JLINK_WriteReg(XPSR, 0x01000000)  returns 0x00 (0000ms, 0959ms total)
T38BC 001:835 JLINK_WriteReg(MSP, 0x20001000)  returns 0x00 (0000ms, 0959ms total)
T38BC 001:835 JLINK_WriteReg(PSP, 0x20001000)  returns 0x00 (0000ms, 0959ms total)
T38BC 001:835 JLINK_WriteReg(CFBP, 0x00000000)  returns 0x00 (0000ms, 0959ms total)
T38BC 001:836 JLINK_SetBPEx(Addr = 0x20000000, Type = 0xFFFFFFF2)  returns 0x00000008 (0000ms, 0960ms total)
T38BC 001:836 JLINK_Go() -- CPU_ReadMem(4 bytes @ 0xE0001000) (0001ms, 0961ms total)
T38BC 001:837 JLINK_IsHalted()  returns FALSE (0001ms, 0962ms total)
T38BC 001:844 JLINK_IsHalted()  returns FALSE (0001ms, 0962ms total)
T38BC 001:851 JLINK_IsHalted()  returns FALSE (0000ms, 0961ms total)
T38BC 001:853 JLINK_IsHalted()  returns FALSE (0000ms, 0961ms total)
T38BC 001:855 JLINK_IsHalted()  returns FALSE (0000ms, 0961ms total)
T38BC 001:857 JLINK_IsHalted()  returns FALSE (0000ms, 0961ms total)
T38BC 001:859 JLINK_IsHalted()  returns FALSE (0001ms, 0962ms total)
T38BC 001:862 JLINK_IsHalted()  returns FALSE (0000ms, 0961ms total)
T38BC 001:864 JLINK_IsHalted()  returns FALSE (0000ms, 0961ms total)
T38BC 001:868 JLINK_IsHalted() -- CPU_ReadMem(2 bytes @ 0x20000000)  returns TRUE (0002ms, 0963ms total)
T38BC 001:870 JLINK_ReadReg(R15 (PC))  returns 0x20000000 (0000ms, 0961ms total)
T38BC 001:870 JLINK_ClrBPEx(BPHandle = 0x00000008)  returns 0x00 (0000ms, 0961ms total)
T38BC 001:870 JLINK_ReadReg(R0)  returns 0x00000000 (0001ms, 0962ms total)
T38BC 001:872 JLINK_WriteMem(0x20000164, 0x0400 Bytes, ...) - Data: 78 21 68 46 09 F0 4E FC 08 BD 00 00 98 32 00 20 ... -- CPU_WriteMem(1024 bytes @ 0x20000164)  returns 0x400 (0004ms, 0966ms total)
T38BC 001:876 JLINK_WriteReg(R0, 0x08001000)  returns 0x00 (0000ms, 0966ms total)
T38BC 001:876 JLINK_WriteReg(R1, 0x00000400)  returns 0x00 (0000ms, 0966ms total)
T38BC 001:876 JLINK_WriteReg(R2, 0x20000164)  returns 0x00 (0000ms, 0966ms total)
T38BC 001:876 JLINK_WriteReg(R3, 0x00000000)  returns 0x00 (0000ms, 0966ms total)
T38BC 001:876 JLINK_WriteReg(R4, 0x00000000)  returns 0x00 (0000ms, 0966ms total)
T38BC 001:876 JLINK_WriteReg(R5, 0x00000000)  returns 0x00 (0000ms, 0966ms total)
T38BC 001:876 JLINK_WriteReg(R6, 0x00000000)  returns 0x00 (0001ms, 0967ms total)
T38BC 001:877 JLINK_WriteReg(R7, 0x00000000)  returns 0x00 (0000ms, 0967ms total)
T38BC 001:877 JLINK_WriteReg(R8, 0x00000000)  returns 0x00 (0000ms, 0967ms total)
T38BC 001:877 JLINK_WriteReg(R9, 0x20000160)  returns 0x00 (0000ms, 0967ms total)
T38BC 001:877 JLINK_WriteReg(R10, 0x00000000)  returns 0x00 (0000ms, 0967ms total)
T38BC 001:877 JLINK_WriteReg(R11, 0x00000000)  returns 0x00 (0000ms, 0967ms total)
T38BC 001:877 JLINK_WriteReg(R12, 0x00000000)  returns 0x00 (0000ms, 0967ms total)
T38BC 001:877 JLINK_WriteReg(R13 (SP), 0x20001000)  returns 0x00 (0000ms, 0967ms total)
T38BC 001:878 JLINK_WriteReg(R14, 0x20000001)  returns 0x00 (0000ms, 0968ms total)
T38BC 001:878 JLINK_WriteReg(R15 (PC), 0x200000F4)  returns 0x00 (0000ms, 0968ms total)
T38BC 001:878 JLINK_WriteReg(XPSR, 0x01000000)  returns 0x00 (0000ms, 0968ms total)
T38BC 001:878 JLINK_WriteReg(MSP, 0x20001000)  returns 0x00 (0000ms, 0968ms total)
T38BC 001:878 JLINK_WriteReg(PSP, 0x20001000)  returns 0x00 (0000ms, 0968ms total)
T38BC 001:878 JLINK_WriteReg(CFBP, 0x00000000)  returns 0x00 (0000ms, 0968ms total)
T38BC 001:878 JLINK_SetBPEx(Addr = 0x20000000, Type = 0xFFFFFFF2)  returns 0x00000009 (0000ms, 0968ms total)
T38BC 001:878 JLINK_Go() -- CPU_ReadMem(4 bytes @ 0xE0001000) (0002ms, 0970ms total)
T38BC 001:880 JLINK_IsHalted()  returns FALSE (0000ms, 0970ms total)
T38BC 001:888 JLINK_IsHalted()  returns FALSE (0000ms, 0970ms total)
T38BC 001:890 JLINK_IsHalted()  returns FALSE (0000ms, 0970ms total)
T38BC 001:892 JLINK_IsHalted()  returns FALSE (0000ms, 0970ms total)
T38BC 001:894 JLINK_IsHalted()  returns FALSE (0000ms, 0970ms total)
T38BC 001:896 JLINK_IsHalted()  returns FALSE (0000ms, 0970ms total)
T38BC 001:902 JLINK_IsHalted()  returns FALSE (0000ms, 0970ms total)
T38BC 001:904 JLINK_IsHalted()  returns FALSE (0001ms, 0971ms total)
T38BC 001:907 JLINK_IsHalted()  returns FALSE (0000ms, 0970ms total)
T38BC 001:909 JLINK_IsHalted()  returns FALSE (0000ms, 0970ms total)
T38BC 001:913 JLINK_IsHalted() -- CPU_ReadMem(2 bytes @ 0x20000000)  returns TRUE (0003ms, 0973ms total)
T38BC 001:916 JLINK_ReadReg(R15 (PC))  returns 0x20000000 (0000ms, 0970ms total)
T38BC 001:916 JLINK_ClrBPEx(BPHandle = 0x00000009)  returns 0x00 (0000ms, 0970ms total)
T38BC 001:916 JLINK_ReadReg(R0)  returns 0x00000000 (0000ms, 0970ms total)
T38BC 001:917 JLINK_WriteMem(0x20000164, 0x0400 Bytes, ...) - Data: 06 00 0B 48 00 78 8D F8 00 00 00 20 8D F8 01 00 ... -- CPU_WriteMem(1024 bytes @ 0x20000164)  returns 0x400 (0004ms, 0974ms total)
T38BC 001:921 JLINK_WriteReg(R0, 0x08001400)  returns 0x00 (0000ms, 0974ms total)
T38BC 001:922 JLINK_WriteReg(R1, 0x00000400)  returns 0x00 (0000ms, 0975ms total)
T38BC 001:922 JLINK_WriteReg(R2, 0x20000164)  returns 0x00 (0000ms, 0975ms total)
T38BC 001:922 JLINK_WriteReg(R3, 0x00000000)  returns 0x00 (0000ms, 0975ms total)
T38BC 001:922 JLINK_WriteReg(R4, 0x00000000)  returns 0x00 (0000ms, 0975ms total)
T38BC 001:922 JLINK_WriteReg(R5, 0x00000000)  returns 0x00 (0000ms, 0975ms total)
T38BC 001:922 JLINK_WriteReg(R6, 0x00000000)  returns 0x00 (0000ms, 0975ms total)
T38BC 001:922 JLINK_WriteReg(R7, 0x00000000)  returns 0x00 (0000ms, 0975ms total)
T38BC 001:922 JLINK_WriteReg(R8, 0x00000000)  returns 0x00 (0000ms, 0975ms total)
T38BC 001:922 JLINK_WriteReg(R9, 0x20000160)  returns 0x00 (0000ms, 0975ms total)
T38BC 001:923 JLINK_WriteReg(R10, 0x00000000)  returns 0x00 (0000ms, 0975ms total)
T38BC 001:923 JLINK_WriteReg(R11, 0x00000000)  returns 0x00 (0000ms, 0975ms total)
T38BC 001:923 JLINK_WriteReg(R12, 0x00000000)  returns 0x00 (0000ms, 0975ms total)
T38BC 001:923 JLINK_WriteReg(R13 (SP), 0x20001000)  returns 0x00 (0000ms, 0975ms total)
T38BC 001:923 JLINK_WriteReg(R14, 0x20000001)  returns 0x00 (0000ms, 0975ms total)
T38BC 001:923 JLINK_WriteReg(R15 (PC), 0x200000F4)  returns 0x00 (0000ms, 0975ms total)
T38BC 001:923 JLINK_WriteReg(XPSR, 0x01000000)  returns 0x00 (0000ms, 0975ms total)
T38BC 001:923 JLINK_WriteReg(MSP, 0x20001000)  returns 0x00 (0000ms, 0975ms total)
T38BC 001:923 JLINK_WriteReg(PSP, 0x20001000)  returns 0x00 (0000ms, 0975ms total)
T38BC 001:923 JLINK_WriteReg(CFBP, 0x00000000)  returns 0x00 (0001ms, 0976ms total)
T38BC 001:924 JLINK_SetBPEx(Addr = 0x20000000, Type = 0xFFFFFFF2)  returns 0x0000000A (0000ms, 0976ms total)
T38BC 001:924 JLINK_Go() -- CPU_ReadMem(4 bytes @ 0xE0001000) (0001ms, 0977ms total)
T38BC 001:925 JLINK_IsHalted()  returns FALSE (0001ms, 0978ms total)
T38BC 001:936 JLINK_IsHalted()  returns FALSE (0000ms, 0977ms total)
T38BC 001:938 JLINK_IsHalted()  returns FALSE (0000ms, 0977ms total)
T38BC 001:946 JLINK_IsHalted()  returns FALSE (0000ms, 0977ms total)
T38BC 001:948 JLINK_IsHalted()  returns FALSE (0000ms, 0977ms total)
T38BC 001:950 JLINK_IsHalted()  returns FALSE (0000ms, 0977ms total)
T38BC 001:952 JLINK_IsHalted()  returns FALSE (0000ms, 0977ms total)
T38BC 001:954 JLINK_IsHalted()  returns FALSE (0000ms, 0977ms total)
T38BC 001:956 JLINK_IsHalted() -- CPU_ReadMem(2 bytes @ 0x20000000)  returns TRUE (0002ms, 0979ms total)
T38BC 001:958 JLINK_ReadReg(R15 (PC))  returns 0x20000000 (0000ms, 0977ms total)
T38BC 001:958 JLINK_ClrBPEx(BPHandle = 0x0000000A)  returns 0x00 (0000ms, 0977ms total)
T38BC 001:958 JLINK_ReadReg(R0)  returns 0x00000000 (0000ms, 0977ms total)
T38BC 001:959 JLINK_WriteMem(0x20000164, 0x0400 Bytes, ...) - Data: 00 F0 F1 FA 00 BF 06 E0 0D F1 0F 00 00 5D 09 49 ... -- CPU_WriteMem(1024 bytes @ 0x20000164)  returns 0x400 (0005ms, 0982ms total)
T38BC 001:964 JLINK_WriteReg(R0, 0x08001800)  returns 0x00 (0000ms, 0982ms total)
T38BC 001:964 JLINK_WriteReg(R1, 0x00000400)  returns 0x00 (0000ms, 0982ms total)
T38BC 001:964 JLINK_WriteReg(R2, 0x20000164)  returns 0x00 (0000ms, 0982ms total)
T38BC 001:964 JLINK_WriteReg(R3, 0x00000000)  returns 0x00 (0000ms, 0982ms total)
T38BC 001:964 JLINK_WriteReg(R4, 0x00000000)  returns 0x00 (0000ms, 0982ms total)
T38BC 001:964 JLINK_WriteReg(R5, 0x00000000)  returns 0x00 (0000ms, 0982ms total)
T38BC 001:964 JLINK_WriteReg(R6, 0x00000000)  returns 0x00 (0000ms, 0982ms total)
T38BC 001:964 JLINK_WriteReg(R7, 0x00000000)  returns 0x00 (0000ms, 0982ms total)
T38BC 001:964 JLINK_WriteReg(R8, 0x00000000)  returns 0x00 (0000ms, 0982ms total)
T38BC 001:964 JLINK_WriteReg(R9, 0x20000160)  returns 0x00 (0000ms, 0982ms total)
T38BC 001:964 JLINK_WriteReg(R10, 0x00000000)  returns 0x00 (0000ms, 0982ms total)
T38BC 001:964 JLINK_WriteReg(R11, 0x00000000)  returns 0x00 (0000ms, 0982ms total)
T38BC 001:965 JLINK_WriteReg(R12, 0x00000000)  returns 0x00 (0000ms, 0983ms total)
T38BC 001:965 JLINK_WriteReg(R13 (SP), 0x20001000)  returns 0x00 (0000ms, 0983ms total)
T38BC 001:965 JLINK_WriteReg(R14, 0x20000001)  returns 0x00 (0000ms, 0983ms total)
T38BC 001:965 JLINK_WriteReg(R15 (PC), 0x200000F4)  returns 0x00 (0000ms, 0983ms total)
T38BC 001:965 JLINK_WriteReg(XPSR, 0x01000000)  returns 0x00 (0000ms, 0983ms total)
T38BC 001:965 JLINK_WriteReg(MSP, 0x20001000)  returns 0x00 (0000ms, 0983ms total)
T38BC 001:965 JLINK_WriteReg(PSP, 0x20001000)  returns 0x00 (0000ms, 0983ms total)
T38BC 001:965 JLINK_WriteReg(CFBP, 0x00000000)  returns 0x00 (0000ms, 0983ms total)
T38BC 001:965 JLINK_SetBPEx(Addr = 0x20000000, Type = 0xFFFFFFF2)  returns 0x0000000B (0000ms, 0983ms total)
T38BC 001:965 JLINK_Go() -- CPU_ReadMem(4 bytes @ 0xE0001000) (0002ms, 0985ms total)
T38BC 001:967 JLINK_IsHalted()  returns FALSE (0000ms, 0985ms total)
T38BC 001:973 JLINK_IsHalted()  returns FALSE (0000ms, 0985ms total)
T38BC 001:975 JLINK_IsHalted()  returns FALSE (0001ms, 0986ms total)
T38BC 001:978 JLINK_IsHalted()  returns FALSE (0000ms, 0985ms total)
T38BC 001:980 JLINK_IsHalted()  returns FALSE (0000ms, 0985ms total)
T38BC 001:982 JLINK_IsHalted()  returns FALSE (0000ms, 0985ms total)
T38BC 001:984 JLINK_IsHalted()  returns FALSE (0000ms, 0985ms total)
T38BC 001:986 JLINK_IsHalted()  returns FALSE (0000ms, 0985ms total)
T38BC 001:988 JLINK_IsHalted()  returns FALSE (0000ms, 0985ms total)
T38BC 001:995 JLINK_IsHalted()  returns FALSE (0000ms, 0985ms total)
T38BC 001:997 JLINK_IsHalted()  returns FALSE (0000ms, 0985ms total)
T38BC 001:999 JLINK_IsHalted() -- CPU_ReadMem(2 bytes @ 0x20000000)  returns TRUE (0002ms, 0987ms total)
T38BC 002:001 JLINK_ReadReg(R15 (PC))  returns 0x20000000 (0000ms, 0985ms total)
T38BC 002:001 JLINK_ClrBPEx(BPHandle = 0x0000000B)  returns 0x00 (0000ms, 0985ms total)
T38BC 002:001 JLINK_ReadReg(R0)  returns 0x00000000 (0000ms, 0985ms total)
T38BC 002:003 JLINK_WriteMem(0x20000164, 0x0400 Bytes, ...) - Data: 34 30 02 88 83 88 42 EA 03 43 2C 4A 40 32 84 7A ... -- CPU_WriteMem(1024 bytes @ 0x20000164)  returns 0x400 (0004ms, 0989ms total)
T38BC 002:007 JLINK_WriteReg(R0, 0x08001C00)  returns 0x00 (0000ms, 0989ms total)
T38BC 002:007 JLINK_WriteReg(R1, 0x00000400)  returns 0x00 (0000ms, 0989ms total)
T38BC 002:007 JLINK_WriteReg(R2, 0x20000164)  returns 0x00 (0001ms, 0990ms total)
T38BC 002:008 JLINK_WriteReg(R3, 0x00000000)  returns 0x00 (0000ms, 0990ms total)
T38BC 002:008 JLINK_WriteReg(R4, 0x00000000)  returns 0x00 (0000ms, 0990ms total)
T38BC 002:008 JLINK_WriteReg(R5, 0x00000000)  returns 0x00 (0000ms, 0990ms total)
T38BC 002:008 JLINK_WriteReg(R6, 0x00000000)  returns 0x00 (0000ms, 0990ms total)
T38BC 002:008 JLINK_WriteReg(R7, 0x00000000)  returns 0x00 (0000ms, 0990ms total)
T38BC 002:008 JLINK_WriteReg(R8, 0x00000000)  returns 0x00 (0000ms, 0990ms total)
T38BC 002:008 JLINK_WriteReg(R9, 0x20000160)  returns 0x00 (0000ms, 0990ms total)
T38BC 002:008 JLINK_WriteReg(R10, 0x00000000)  returns 0x00 (0000ms, 0990ms total)
T38BC 002:008 JLINK_WriteReg(R11, 0x00000000)  returns 0x00 (0000ms, 0990ms total)
T38BC 002:008 JLINK_WriteReg(R12, 0x00000000)  returns 0x00 (0001ms, 0991ms total)
T38BC 002:009 JLINK_WriteReg(R13 (SP), 0x20001000)  returns 0x00 (0000ms, 0991ms total)
T38BC 002:009 JLINK_WriteReg(R14, 0x20000001)  returns 0x00 (0000ms, 0991ms total)
T38BC 002:009 JLINK_WriteReg(R15 (PC), 0x200000F4)  returns 0x00 (0000ms, 0991ms total)
T38BC 002:009 JLINK_WriteReg(XPSR, 0x01000000)  returns 0x00 (0000ms, 0991ms total)
T38BC 002:009 JLINK_WriteReg(MSP, 0x20001000)  returns 0x00 (0000ms, 0991ms total)
T38BC 002:009 JLINK_WriteReg(PSP, 0x20001000)  returns 0x00 (0000ms, 0991ms total)
T38BC 002:009 JLINK_WriteReg(CFBP, 0x00000000)  returns 0x00 (0000ms, 0991ms total)
T38BC 002:009 JLINK_SetBPEx(Addr = 0x20000000, Type = 0xFFFFFFF2)  returns 0x0000000C (0000ms, 0991ms total)
T38BC 002:009 JLINK_Go() -- CPU_ReadMem(4 bytes @ 0xE0001000) (0002ms, 0993ms total)
T38BC 002:011 JLINK_IsHalted()  returns FALSE (0000ms, 0993ms total)
T38BC 002:016 JLINK_IsHalted()  returns FALSE (0001ms, 0994ms total)
T38BC 002:020 JLINK_IsHalted()  returns FALSE (0000ms, 0993ms total)
T38BC 002:022 JLINK_IsHalted()  returns FALSE (0000ms, 0993ms total)
T38BC 002:024 JLINK_IsHalted()  returns FALSE (0000ms, 0993ms total)
T38BC 002:026 JLINK_IsHalted()  returns FALSE (0001ms, 0994ms total)
T38BC 002:029 JLINK_IsHalted()  returns FALSE (0000ms, 0993ms total)
T38BC 002:031 JLINK_IsHalted()  returns FALSE (0000ms, 0993ms total)
T38BC 002:033 JLINK_IsHalted()  returns FALSE (0000ms, 0993ms total)
T38BC 002:035 JLINK_IsHalted()  returns FALSE (0000ms, 0993ms total)
T38BC 002:045 JLINK_IsHalted() -- CPU_ReadMem(2 bytes @ 0x20000000)  returns TRUE (0002ms, 0995ms total)
T38BC 002:047 JLINK_ReadReg(R15 (PC))  returns 0x20000000 (0000ms, 0993ms total)
T38BC 002:047 JLINK_ClrBPEx(BPHandle = 0x0000000C)  returns 0x00 (0000ms, 0993ms total)
T38BC 002:047 JLINK_ReadReg(R0)  returns 0x00000000 (0000ms, 0993ms total)
T38BC 002:049 JLINK_WriteMem(0x20000164, 0x0400 Bytes, ...) - Data: 00 78 19 49 08 70 20 20 48 70 01 20 88 70 17 48 ... -- CPU_WriteMem(1024 bytes @ 0x20000164)  returns 0x400 (0004ms, 0997ms total)
T38BC 002:053 JLINK_WriteReg(R0, 0x08002000)  returns 0x00 (0000ms, 0997ms total)
T38BC 002:053 JLINK_WriteReg(R1, 0x00000400)  returns 0x00 (0000ms, 0997ms total)
T38BC 002:053 JLINK_WriteReg(R2, 0x20000164)  returns 0x00 (0000ms, 0997ms total)
T38BC 002:053 JLINK_WriteReg(R3, 0x00000000)  returns 0x00 (0000ms, 0997ms total)
T38BC 002:053 JLINK_WriteReg(R4, 0x00000000)  returns 0x00 (0000ms, 0997ms total)
T38BC 002:053 JLINK_WriteReg(R5, 0x00000000)  returns 0x00 (0000ms, 0997ms total)
T38BC 002:053 JLINK_WriteReg(R6, 0x00000000)  returns 0x00 (0000ms, 0997ms total)
T38BC 002:053 JLINK_WriteReg(R7, 0x00000000)  returns 0x00 (0001ms, 0998ms total)
T38BC 002:054 JLINK_WriteReg(R8, 0x00000000)  returns 0x00 (0000ms, 0998ms total)
T38BC 002:054 JLINK_WriteReg(R9, 0x20000160)  returns 0x00 (0000ms, 0998ms total)
T38BC 002:054 JLINK_WriteReg(R10, 0x00000000)  returns 0x00 (0000ms, 0998ms total)
T38BC 002:054 JLINK_WriteReg(R11, 0x00000000)  returns 0x00 (0000ms, 0998ms total)
T38BC 002:054 JLINK_WriteReg(R12, 0x00000000)  returns 0x00 (0000ms, 0998ms total)
T38BC 002:054 JLINK_WriteReg(R13 (SP), 0x20001000)  returns 0x00 (0000ms, 0998ms total)
T38BC 002:054 JLINK_WriteReg(R14, 0x20000001)  returns 0x00 (0000ms, 0998ms total)
T38BC 002:054 JLINK_WriteReg(R15 (PC), 0x200000F4)  returns 0x00 (0000ms, 0998ms total)
T38BC 002:054 JLINK_WriteReg(XPSR, 0x01000000)  returns 0x00 (0000ms, 0998ms total)
T38BC 002:055 JLINK_WriteReg(MSP, 0x20001000)  returns 0x00 (0000ms, 0998ms total)
T38BC 002:055 JLINK_WriteReg(PSP, 0x20001000)  returns 0x00 (0000ms, 0998ms total)
T38BC 002:055 JLINK_WriteReg(CFBP, 0x00000000)  returns 0x00 (0000ms, 0998ms total)
T38BC 002:055 JLINK_SetBPEx(Addr = 0x20000000, Type = 0xFFFFFFF2)  returns 0x0000000D (0000ms, 0998ms total)
T38BC 002:055 JLINK_Go() -- CPU_ReadMem(4 bytes @ 0xE0001000) (0001ms, 0999ms total)
T38BC 002:057 JLINK_IsHalted()  returns FALSE (0000ms, 1000ms total)
T38BC 002:064 JLINK_IsHalted()  returns FALSE (0000ms, 1000ms total)
T38BC 002:072 JLINK_IsHalted()  returns FALSE (0001ms, 1001ms total)
T38BC 002:075 JLINK_IsHalted()  returns FALSE (0000ms, 1000ms total)
T38BC 002:077 JLINK_IsHalted()  returns FALSE (0000ms, 1000ms total)
T38BC 002:081 JLINK_IsHalted()  returns FALSE (0000ms, 1000ms total)
T38BC 002:083 JLINK_IsHalted()  returns FALSE (0000ms, 1000ms total)
T38BC 002:085 JLINK_IsHalted()  returns FALSE (0000ms, 1000ms total)
T38BC 002:087 JLINK_IsHalted()  returns FALSE (0001ms, 1001ms total)
T38BC 002:090 JLINK_IsHalted() -- CPU_ReadMem(2 bytes @ 0x20000000)  returns TRUE (0002ms, 1002ms total)
T38BC 002:092 JLINK_ReadReg(R15 (PC))  returns 0x20000000 (0000ms, 1000ms total)
T38BC 002:092 JLINK_ClrBPEx(BPHandle = 0x0000000D)  returns 0x00 (0000ms, 1000ms total)
T38BC 002:092 JLINK_ReadReg(R0)  returns 0x00000000 (0000ms, 1000ms total)
T38BC 002:093 JLINK_WriteMem(0x20000164, 0x0400 Bytes, ...) - Data: 88 70 1B 48 00 78 C8 70 1A 49 1B 48 00 68 FD F7 ... -- CPU_WriteMem(1024 bytes @ 0x20000164)  returns 0x400 (0005ms, 1005ms total)
T38BC 002:098 JLINK_WriteReg(R0, 0x08002400)  returns 0x00 (0000ms, 1005ms total)
T38BC 002:098 JLINK_WriteReg(R1, 0x00000400)  returns 0x00 (0000ms, 1005ms total)
T38BC 002:098 JLINK_WriteReg(R2, 0x20000164)  returns 0x00 (0000ms, 1005ms total)
T38BC 002:098 JLINK_WriteReg(R3, 0x00000000)  returns 0x00 (0000ms, 1005ms total)
T38BC 002:098 JLINK_WriteReg(R4, 0x00000000)  returns 0x00 (0000ms, 1005ms total)
T38BC 002:098 JLINK_WriteReg(R5, 0x00000000)  returns 0x00 (0000ms, 1005ms total)
T38BC 002:098 JLINK_WriteReg(R6, 0x00000000)  returns 0x00 (0000ms, 1005ms total)
T38BC 002:098 JLINK_WriteReg(R7, 0x00000000)  returns 0x00 (0000ms, 1005ms total)
T38BC 002:098 JLINK_WriteReg(R8, 0x00000000)  returns 0x00 (0000ms, 1005ms total)
T38BC 002:098 JLINK_WriteReg(R9, 0x20000160)  returns 0x00 (0000ms, 1005ms total)
T38BC 002:098 JLINK_WriteReg(R10, 0x00000000)  returns 0x00 (0000ms, 1005ms total)
T38BC 002:098 JLINK_WriteReg(R11, 0x00000000)  returns 0x00 (0000ms, 1005ms total)
T38BC 002:098 JLINK_WriteReg(R12, 0x00000000)  returns 0x00 (0000ms, 1005ms total)
T38BC 002:098 JLINK_WriteReg(R13 (SP), 0x20001000)  returns 0x00 (0000ms, 1005ms total)
T38BC 002:098 JLINK_WriteReg(R14, 0x20000001)  returns 0x00 (0001ms, 1006ms total)
T38BC 002:099 JLINK_WriteReg(R15 (PC), 0x200000F4)  returns 0x00 (0000ms, 1006ms total)
T38BC 002:099 JLINK_WriteReg(XPSR, 0x01000000)  returns 0x00 (0000ms, 1006ms total)
T38BC 002:099 JLINK_WriteReg(MSP, 0x20001000)  returns 0x00 (0000ms, 1006ms total)
T38BC 002:099 JLINK_WriteReg(PSP, 0x20001000)  returns 0x00 (0000ms, 1006ms total)
T38BC 002:099 JLINK_WriteReg(CFBP, 0x00000000)  returns 0x00 (0000ms, 1006ms total)
T38BC 002:099 JLINK_SetBPEx(Addr = 0x20000000, Type = 0xFFFFFFF2)  returns 0x0000000E (0000ms, 1006ms total)
T38BC 002:099 JLINK_Go() -- CPU_ReadMem(4 bytes @ 0xE0001000) (0002ms, 1008ms total)
T38BC 002:101 JLINK_IsHalted()  returns FALSE (0000ms, 1008ms total)
T38BC 002:109 JLINK_IsHalted()  returns FALSE (0000ms, 1008ms total)
T38BC 002:114 JLINK_IsHalted()  returns FALSE (0001ms, 1009ms total)
T38BC 002:116 JLINK_IsHalted()  returns FALSE (0000ms, 1008ms total)
T38BC 002:118 JLINK_IsHalted()  returns FALSE (0000ms, 1008ms total)
T38BC 002:120 JLINK_IsHalted()  returns FALSE (0001ms, 1009ms total)
T38BC 002:123 JLINK_IsHalted()  returns FALSE (0000ms, 1008ms total)
T38BC 002:125 JLINK_IsHalted()  returns FALSE (0000ms, 1008ms total)
T38BC 002:129 JLINK_IsHalted()  returns FALSE (0000ms, 1008ms total)
T38BC 002:131 JLINK_IsHalted()  returns FALSE (0000ms, 1008ms total)
T38BC 002:133 JLINK_IsHalted() -- CPU_ReadMem(2 bytes @ 0x20000000)  returns TRUE (0002ms, 1010ms total)
T38BC 002:135 JLINK_ReadReg(R15 (PC))  returns 0x20000000 (0000ms, 1008ms total)
T38BC 002:135 JLINK_ClrBPEx(BPHandle = 0x0000000E)  returns 0x00 (0000ms, 1008ms total)
T38BC 002:135 JLINK_ReadReg(R0)  returns 0x00000000 (0000ms, 1008ms total)
T38BC 002:137 JLINK_WriteMem(0x20000164, 0x0400 Bytes, ...) - Data: 05 D1 00 20 29 49 48 73 05 F0 46 FF 4D E0 27 48 ... -- CPU_WriteMem(1024 bytes @ 0x20000164)  returns 0x400 (0004ms, 1012ms total)
T38BC 002:141 JLINK_WriteReg(R0, 0x08002800)  returns 0x00 (0000ms, 1012ms total)
T38BC 002:141 JLINK_WriteReg(R1, 0x00000400)  returns 0x00 (0000ms, 1012ms total)
T38BC 002:141 JLINK_WriteReg(R2, 0x20000164)  returns 0x00 (0000ms, 1012ms total)
